
T3960 000:441 SEGGER J-Link V4.80g Log File (0000ms, 0296ms total)
T3960 000:441 DLL Compiled: Feb 13 2014 20:50:02 (0000ms, 0296ms total)
T3960 000:441 Logging started @ 2020-10-29 15:13 (0000ms, 0296ms total)
T3960 000:441 JLINK_SetWarnOutHandler(...) (0000ms, 0296ms total)
T3960 000:441 JLINK_OpenEx(...)
Firmware: J-Link ARM-OB STM32 compiled Aug 22 2012 19:52:04
Hardware: V7.00
S/N: 20090928
Feature(s): RDI,FlashDL,FlashBP,JFlash,GDBFull  returns O.K. (0291ms, 0587ms total)
T3960 000:732 JLINK_SetErrorOutHandler(...) (0000ms, 0587ms total)
T3960 000:732 JLINK_ExecCommand("ProjectFile = "C:\Users\zjuly\Desktop\FC\FC_OS\JLinkSettings.ini"", ...)Device "UNSPECIFIED" selected (0 KB flash, 0 KB RAM).  returns 0x00 (0001ms, 0588ms total)
T3960 000:733 JLINK_ExecCommand("Device = STM32F407VGTx", ...)Device "UNSPECIFIED" selected (0 KB flash, 0 KB RAM).  returns 0x00 (0000ms, 0588ms total)
T3960 000:733 JLINK_ExecCommand("DisableConnectionTimeout", ...)  returns 0x01 (0000ms, 0588ms total)
T3960 000:733 JLINK_GetHardwareVersion()  returns 0x11170 (0000ms, 0588ms total)
T3960 000:733 JLINK_GetDLLVersion()  returns 48007 (0000ms, 0588ms total)
T3960 000:733 JLINK_GetFirmwareString(...) (0000ms, 0588ms total)
T3960 000:733 JLINK_GetDLLVersion()  returns 48007 (0000ms, 0588ms total)
T3960 000:733 JLINK_GetCompileDateTime() (0000ms, 0588ms total)
T3960 000:733 JLINK_GetFirmwareString(...) (0000ms, 0588ms total)
T3960 000:733 JLINK_GetHardwareVersion()  returns 0x11170 (0000ms, 0588ms total)
T3960 000:733 JLINK_TIF_Select(JLINKARM_TIF_SWD)  returns 0x00 (0009ms, 0597ms total)
T3960 000:742 JLINK_SetSpeed(50) (0003ms, 0600ms total)
T3960 000:745 JLINK_GetId() >0x108 TIF>Found SWD-DP with ID 0x2BA01477 >0x0D TIF> >0x21 TIF> >0x0D TIF> >0x28 TIF> >0x0D TIF> >0x28 TIF> >0x0D TIF> >0x21 TIF> >0x0D TIF> >0x28 TIF> >0x0D TIF> >0x21 TIF> >0x0D TIF> >0x21 TIF> >0x0D TIF> >0x21 TIF> >0x0D TIF> >0x21 TIF> >0x0D TIF> >0x28 TIF> >0x0D TIF> >0x28 TIF> >0x0D TIF> >0x21 TIF> >0x0D TIF> >0x28 TIF> >0x0D TIF> >0x28 TIF> >0x0D TIF> >0x28 TIF> >0x0D TIF> >0x21 TIF> >0x0D TIF> >0x21 TIF> >0x0D TIF> >0x28 TIF> >0x0D TIF> >0x21 TIF> >0x0D TIF>
 >0x21 TIF>Found Cortex-M4 r0p1, Little endian. -- CPU_WriteMem(4 bytes @ 0xE0002000) -- CPU_ReadMem(4 bytes @ 0xE000EDF0) -- CPU_ReadMem(4 bytes @ 0xE0002000)FPUnit: 6 code (BP) slots and 2 literal slots -- CPU_ReadMem(4 bytes @ 0xE000EDFC) -- CPU_ReadMem(4 bytes @ 0xE0001000) -- CPU_WriteMem(4 bytes @ 0xE0001000) -- CPU_ReadMem(4 bytes @ 0xE00FF010)TPIU fitted. -- CPU_ReadMem(4 bytes @ 0xE00FF014)ETM fitted. -- CPU_ReadMem(4 bytes @ 0xE00FF018) >0x0D TIF> >0x21 TIF>  returns 0x2BA01477
 (0236ms, 0836ms total)
T3960 000:981 JLINK_GetDeviceFamily()  returns 14 (0001ms, 0837ms total)
T3960 000:982 JLINK_ReadMem (0xE00FFFF0, 0x0010 Bytes, ...) -- CPU is running -- CPU_ReadMem(16 bytes @ 0xE00FFFF0) -- Data:  0D 00 00 00 10 00 00 00 05 00 00 00 B1 00 00 00  returns 0x00 (0012ms, 0849ms total)
T3960 000:994 JLINK_ReadMem (0xE00FFFD0, 0x0020 Bytes, ...) -- CPU is running -- CPU_ReadMem(32 bytes @ 0xE00FFFD0) -- Data:  00 00 00 00 00 00 00 00 00 00 00 00 00 00 00 00 ...  returns 0x00 (0015ms, 0864ms total)
T3960 001:009 JLINK_ReadMem (0xE00FF000, 0x0018 Bytes, ...) -- CPU is running -- CPU_ReadMem(24 bytes @ 0xE00FF000) -- Data:  03 F0 F0 FF 03 20 F0 FF 03 30 F0 FF 03 10 F0 FF ...  returns 0x00 (0018ms, 0882ms total)
T3960 001:027 JLINK_ReadMemU32(0xE000ED00, 0x0001 Items, ...) -- CPU is running -- CPU_ReadMem(4 bytes @ 0xE000ED00) -- Data:  41 C2 0F 41  returns 0x01 (0009ms, 0891ms total)
T3960 001:036 JLINK_ReadMemU32(0xE000EF40, 0x0001 Items, ...) -- CPU is running -- CPU_ReadMem(4 bytes @ 0xE000EF40) -- Data:  21 00 11 10  returns 0x01 (0009ms, 0900ms total)
T3960 001:045 JLINK_ReadMemU32(0xE000EF44, 0x0001 Items, ...) -- CPU is running -- CPU_ReadMem(4 bytes @ 0xE000EF44) -- Data:  11 00 00 11  returns 0x01 (0009ms, 0909ms total)
T3960 001:054 JLINK_SetResetType(JLINKARM_RESET_TYPE_NORMAL)  returns JLINKARM_RESET_TYPE_NORMAL (0000ms, 0909ms total)
T3960 001:054 JLINK_Reset() -- CPU is running -- CPU_WriteMem(4 bytes @ 0xE000EDF0) -- CPU is running -- CPU_WriteMem(4 bytes @ 0xE000EDFC) >0x35 TIF> -- CPU is running -- CPU_WriteMem(4 bytes @ 0xE000ED0C) -- CPU is running -- CPU_ReadMem(4 bytes @ 0xE000EDF0) -- CPU is running -- CPU_ReadMem(4 bytes @ 0xE000EDF0) -- CPU is running -- CPU_WriteMem(4 bytes @ 0xE000EDF0) -- CPU is running -- CPU_WriteMem(4 bytes @ 0xE000EDFC) -- CPU is running -- CPU_ReadMem(4 bytes @ 0xE000EDF0)
 -- CPU_WriteMem(4 bytes @ 0xE0002000) -- CPU_ReadMem(4 bytes @ 0xE000EDFC) -- CPU_ReadMem(4 bytes @ 0xE0001000) (0189ms, 1098ms total)
T3960 001:243 JLINK_ReadReg(R15 (PC))  returns 0x0800025C (0000ms, 1098ms total)
T3960 001:243 JLINK_ReadReg(XPSR)  returns 0x01000000 (0000ms, 1098ms total)
T3960 001:243 JLINK_Halt()  returns 0x00 (0000ms, 1098ms total)
T3960 001:243 JLINK_IsHalted()  returns TRUE (0000ms, 1098ms total)
T3960 001:243 JLINK_ReadMemU32(0xE000EDF0, 0x0001 Items, ...) -- CPU_ReadMem(4 bytes @ 0xE000EDF0) -- Data:  03 00 03 00  returns 0x01 (0009ms, 1107ms total)
T3960 001:252 JLINK_WriteU32(0xE000EDF0, 0xA05F0003) -- CPU_WriteMem(4 bytes @ 0xE000EDF0)  returns 0x00 (0009ms, 1116ms total)
T3960 001:261 JLINK_WriteU32(0xE000EDFC, 0x01000000) -- CPU_WriteMem(4 bytes @ 0xE000EDFC)  returns 0x00 (0009ms, 1125ms total)
T3960 001:270 JLINK_GetHWStatus(...)  returns 0x00 (0003ms, 1128ms total)
T3960 001:273 JLINK_GetNumBPUnits(Type = 0xFFFFFF00)  returns 0x06 (0000ms, 1128ms total)
T3960 001:273 JLINK_GetNumBPUnits(Type = 0xF0)  returns 0x2000 (0000ms, 1128ms total)
T3960 001:273 JLINK_GetNumWPUnits()  returns 0x04 (0000ms, 1128ms total)
T3960 001:273 JLINK_GetSpeed()  returns 0x32 (0000ms, 1128ms total)
T3960 001:273 JLINK_ReadMemU32(0xE000E004, 0x0001 Items, ...) -- CPU_ReadMem(4 bytes @ 0xE000E004) -- Data:  02 00 00 00  returns 0x01 (0009ms, 1137ms total)
T3960 001:282 JLINK_ReadMemU32(0xE000E004, 0x0001 Items, ...) -- CPU_ReadMem(4 bytes @ 0xE000E004) -- Data:  02 00 00 00  returns 0x01 (0009ms, 1146ms total)
T3960 001:291 JLINK_WriteMem(0xE0001000, 0x001C Bytes, ...) -- Data:  01 00 00 00 00 00 00 00 00 00 00 00 00 00 00 00 ... -- CPU_WriteMem(28 bytes @ 0xE0001000)  returns 0x1C (0015ms, 1161ms total)
T3960 001:306 JLINK_ReadMem (0xE0001000, 0x001C Bytes, ...) -- CPU_ReadMem(28 bytes @ 0xE0001000) -- Data:  01 00 00 40 00 00 00 00 00 00 00 00 00 00 00 00 ...  returns 0x00 (0016ms, 1177ms total)
T3960 001:322 JLINK_ReadReg(R15 (PC))  returns 0x0800025C (0000ms, 1177ms total)
T3960 001:322 JLINK_ReadReg(XPSR)  returns 0x01000000 (0000ms, 1177ms total)
T3960 001:322 JLINK_WriteU32(0xE0041FB0, 0xC5ACCE55) -- CPU_WriteMem(4 bytes @ 0xE0041FB0)  returns 0x00 (0009ms, 1186ms total)
T3960 001:331 JLINK_ReadMemU32(0xE0041000, 0x0001 Items, ...) -- CPU_ReadMem(4 bytes @ 0xE0041000) -- Data:  01 00 00 00  returns 0x01 (0009ms, 1195ms total)
T3960 001:340 JLINK_WriteU32(0xE0041000, 0x00000000) -- CPU_WriteMem(4 bytes @ 0xE0041000)  returns 0x00 (0009ms, 1204ms total)
T3960 001:356 JLINK_SWO_Control(JLINKARM_SWO_CMD_GET_SPEED_INFO, ...)  returns 0x00 (0003ms, 1207ms total)
T3960 001:359 JLINK_SWO_Control(JLINKARM_SWO_CMD_STOP, ...)  returns 0x00 (0000ms, 1207ms total)
T3960 001:359 JLINK_SWO_Control(JLINKARM_SWO_CMD_START, ...) -- UART -- 4421052bps  returns 0x00 (0012ms, 1219ms total)
T3960 001:371 JLINK_WriteU32(0xE0040004, 0x00000001) -- CPU_WriteMem(4 bytes @ 0xE0040004)  returns 0x00 (0009ms, 1228ms total)
T3960 001:383 JLINK_WriteU32(0xE0040010, 0x00000025) -- CPU_WriteMem(4 bytes @ 0xE0040010)  returns 0x00 (0010ms, 1238ms total)
T3960 001:395 JLINK_WriteU32(0xE00400F0, 0x00000002) -- CPU_WriteMem(4 bytes @ 0xE00400F0)  returns 0x00 (0010ms, 1248ms total)
T3960 001:407 JLINK_WriteU32(0xE0040304, 0x00000000) -- CPU_WriteMem(4 bytes @ 0xE0040304)  returns 0x00 (0010ms, 1258ms total)
T3960 001:419 JLINK_WriteU32(0xE0000FB0, 0xC5ACCE55) -- CPU_WriteMem(4 bytes @ 0xE0000FB0)  returns 0x00 (0010ms, 1268ms total)
T3960 001:431 JLINK_WriteU32(0xE0000E80, 0x0001000D) -- CPU_WriteMem(4 bytes @ 0xE0000E80)  returns 0x00 (0010ms, 1278ms total)
T3960 001:442 JLINK_WriteU32(0xE0000E00, 0xFFFFFFFF) -- CPU_WriteMem(4 bytes @ 0xE0000E00)  returns 0x00 (0011ms, 1289ms total)
T3960 001:455 JLINK_WriteU32(0xE0000E40, 0x00000008) -- CPU_WriteMem(4 bytes @ 0xE0000E40)  returns 0x00 (0010ms, 1299ms total)
T3960 001:467 JLINK_WriteU32(0xE0001000, 0x00010A1F) -- CPU_WriteMem(4 bytes @ 0xE0001000)  returns 0x00 (0009ms, 1308ms total)
T3960 001:494 JLINK_ReadMem (0xE0001004, 0x0004 Bytes, ...) -- CPU_ReadMem(4 bytes @ 0xE0001004) -- Data:  00 00 00 00  returns 0x00 (0009ms, 1317ms total)
T3960 001:573 JLINK_SetResetType(JLINKARM_RESET_TYPE_NORMAL)  returns JLINKARM_RESET_TYPE_NORMAL (0000ms, 1317ms total)
T3960 001:573 JLINK_Reset() -- CPU_WriteMem(4 bytes @ 0xE000EDF0) -- CPU_WriteMem(4 bytes @ 0xE000EDFC) >0x35 TIF> -- CPU_WriteMem(4 bytes @ 0xE000ED0C) -- CPU_ReadMem(4 bytes @ 0xE000EDF0) -- CPU_ReadMem(4 bytes @ 0xE000EDF0) -- CPU_WriteMem(4 bytes @ 0xE000EDF0) -- CPU_WriteMem(4 bytes @ 0xE000EDFC) -- CPU is running -- CPU_ReadMem(4 bytes @ 0xE000EDF0) -- CPU_WriteMem(4 bytes @ 0xE0002000) -- CPU_ReadMem(4 bytes @ 0xE000EDFC) -- CPU_ReadMem(4 bytes @ 0xE0001000) (0187ms, 1504ms total)
T3960 001:766 JLINK_WriteU32(0xE000EDFC, 0x01000000) -- CPU_WriteMem(4 bytes @ 0xE000EDFC)  returns 0x00 (0010ms, 1514ms total)
T3960 001:778 JLINK_ReadReg(R15 (PC))  returns 0x0800025C (0000ms, 1514ms total)
T3960 001:778 JLINK_ReadReg(XPSR)  returns 0x01000000 (0000ms, 1514ms total)
T3960 002:022 JLINK_ReadMem (0x08000188, 0x003C Bytes, ...) -- CPU_ReadMem(60 bytes @ 0x08000188) -- Data:  DF F8 0C D0 00 F0 B2 F8 00 48 00 47 FD 18 00 08 ...  returns 0x00 (0027ms, 1541ms total)
T3960 002:052 JLINK_ReadMem (0x080001C4, 0x003C Bytes, ...) -- CPU_ReadMem(60 bytes @ 0x080001C4) -- Data:  08 88 4F F0 00 00 80 F3 14 88 62 B6 61 B6 BF F3 ...  returns 0x00 (0023ms, 1564ms total)
T3960 002:078 JLINK_ReadMem (0x08000200, 0x003C Bytes, ...) -- CPU_ReadMem(60 bytes @ 0x08000200) -- Data:  13 4B 1A 68 1E F0 10 0F 08 BF 20 ED 10 8A 20 E9 ...  returns 0x00 (0023ms, 1587ms total)
T3960 002:104 JLINK_ReadMem (0x0800023C, 0x003C Bytes, ...) -- CPU_ReadMem(60 bytes @ 0x0800023C) -- Data:  1E F0 10 0F 08 BF B0 EC 10 8A 80 F3 09 88 BF F3 ...  returns 0x00 (0023ms, 1610ms total)
T3960 002:209 JLINK_WriteU32(0xE0001008, 0x00000000) -- CPU_WriteMem(4 bytes @ 0xE0001008)  returns 0x00 (0010ms, 1620ms total)
T3960 002:221 JLINK_WriteU32(0xE000100C, 0x00000000) -- CPU_WriteMem(4 bytes @ 0xE000100C)  returns 0x00 (0010ms, 1630ms total)
T3960 002:233 JLINK_WriteU32(0xE0001010, 0x00000000) -- CPU_WriteMem(4 bytes @ 0xE0001010)  returns 0x00 (0010ms, 1640ms total)
T3960 002:245 JLINK_WriteU32(0xE0001014, 0x00000000) -- CPU_WriteMem(4 bytes @ 0xE0001014)  returns 0x00 (0010ms, 1650ms total)
T3960 002:257 JLINK_WriteU32(0xE0001018, 0x00000000) -- CPU_WriteMem(4 bytes @ 0xE0001018)  returns 0x00 (0009ms, 1659ms total)
T3960 003:884 JLINK_ReadMem (0x200007B8, 0x0020 Bytes, ...) -- CPU_ReadMem(32 bytes @ 0x200007B8) -- Data:  00 00 00 00 00 00 00 00 00 00 00 00 00 00 00 00 ...  returns 0x00 (0019ms, 1678ms total)
T3960 003:912 JLINK_ReadMem (0x2000007C, 0x0004 Bytes, ...) -- CPU_ReadMem(4 bytes @ 0x2000007C) -- Data:  00 00 00 00  returns 0x00 (0009ms, 1687ms total)
T3960 003:942 JLINK_ReadMem (0x200000E0, 0x0020 Bytes, ...) -- CPU_ReadMem(32 bytes @ 0x200000E0) -- Data:  00 00 00 00 00 00 00 00 00 00 00 00 00 00 00 00 ...  returns 0x00 (0016ms, 1703ms total)
T6608 004:004 JLINK_SetBPEx(Addr = 0x080018FC, Type = 0xFFFFFFF2)  returns 0x00000001 (0000ms, 1703ms total)
T6608 004:004 JLINK_SetBPEx(Addr = 0x080019A0, Type = 0xFFFFFFF2)  returns 0x00000002 (0000ms, 1703ms total)
T6608 004:004 JLINK_SetBPEx(Addr = 0x08001990, Type = 0xFFFFFFF2)  returns 0x00000003 (0000ms, 1703ms total)
T6608 004:004 JLINK_SetBPEx(Addr = 0x08001970, Type = 0xFFFFFFF2)  returns 0x00000004 (0000ms, 1703ms total)
T6608 004:004 JLINK_SetBPEx(Addr = 0x0800196A, Type = 0xFFFFFFF2)  returns 0x00000005 (0000ms, 1703ms total)
T6608 004:004 JLINK_SetBPEx(Addr = 0x08000972, Type = 0xFFFFFFF2)  returns 0x00000006 (0000ms, 1703ms total)
T6608 004:004 JLINK_ReadMemU32(0xE0001004, 0x0001 Items, ...) -- CPU_ReadMem(4 bytes @ 0xE0001004) -- Data:  49 77 00 00  returns 0x01 (0010ms, 1713ms total)
T6608 004:016 JLINK_WriteU32(0xE0001004, 0x000003FF) -- CPU_WriteMem(4 bytes @ 0xE0001004)  returns 0x00 (0010ms, 1723ms total)
T6608 004:028 JLINK_WriteU32(0xE0001000, 0x00410A1F) -- CPU_WriteMem(4 bytes @ 0xE0001000)  returns 0x00 (0010ms, 1733ms total)
T6608 004:040 JLINK_WriteU32(0xE0000E80, 0x0001000F) -- CPU_WriteMem(4 bytes @ 0xE0000E80)  returns 0x00 (0010ms, 1743ms total)
T6608 004:052 JLINK_SWO_Control(JLINKARM_SWO_CMD_GET_NUM_BYTES, ...)  returns 0x00 (0000ms, 1743ms total)
T6608 004:052 JLINK_Go() -- CPU_WriteMem(4 bytes @ 0xE0002000) -- CPU_WriteMem(4 bytes @ 0xE0002008) -- CPU_WriteMem(4 bytes @ 0xE0002000) -- CPU_WriteMem(4 bytes @ 0xE000200C) -- CPU_WriteMem(4 bytes @ 0xE0002000) -- CPU_WriteMem(4 bytes @ 0xE0002010) -- CPU_WriteMem(4 bytes @ 0xE0002000) -- CPU_WriteMem(4 bytes @ 0xE0002014) -- CPU_WriteMem(4 bytes @ 0xE0002000) -- CPU_WriteMem(4 bytes @ 0xE0002018) -- CPU_WriteMem(4 bytes @ 0xE0002000) -- CPU_WriteMem(4 bytes @ 0xE000201C)
 -- CPU_WriteMem(4 bytes @ 0xE0001004) (0140ms, 1883ms total)
T6608 004:194 JLINK_WriteU32(0xE0001000, 0x00010A1F) -- CPU is running -- CPU_WriteMem(4 bytes @ 0xE0001000)  returns 0x00 (0010ms, 1893ms total)
T6608 004:307 JLINK_SWO_Read(..., Offset = 0x00, NumBytes = 0x400000) -- Data:   NumBytesRead = 0x00 (0000ms, 1893ms total)
T6608 004:311 JLINK_SWO_Control(JLINKARM_SWO_CMD_FLUSH, ...)  returns 0x00 (0000ms, 1893ms total)
T6608 004:311 JLINK_IsHalted()  returns TRUE (0076ms, 1969ms total)
T6608 004:390 JLINK_Halt()  returns 0x00 (0000ms, 1893ms total)
T6608 004:390 JLINK_IsHalted()  returns TRUE (0000ms, 1893ms total)
T6608 004:390 JLINK_IsHalted()  returns TRUE (0000ms, 1893ms total)
T6608 004:390 JLINK_IsHalted()  returns TRUE (0000ms, 1893ms total)
T6608 004:390 JLINK_ReadReg(R15 (PC))  returns 0x080018FC (0000ms, 1893ms total)
T6608 004:390 JLINK_ReadReg(XPSR)  returns 0x61000000 (0000ms, 1893ms total)
T6608 004:390 JLINK_SWO_Read(..., Offset = 0x00, NumBytes = 0x400000) -- Data:   NumBytesRead = 0x00 (0000ms, 1893ms total)
T6608 004:397 JLINK_SWO_Control(JLINKARM_SWO_CMD_FLUSH, ...)  returns 0x00 (0000ms, 1893ms total)
T6608 004:397 JLINK_ClrBPEx(BPHandle = 0x00000001)  returns 0x00 (0000ms, 1893ms total)
T6608 004:397 JLINK_ClrBPEx(BPHandle = 0x00000002)  returns 0x00 (0000ms, 1893ms total)
T6608 004:397 JLINK_ClrBPEx(BPHandle = 0x00000003)  returns 0x00 (0000ms, 1893ms total)
T6608 004:397 JLINK_ClrBPEx(BPHandle = 0x00000004)  returns 0x00 (0000ms, 1893ms total)
T6608 004:397 JLINK_ClrBPEx(BPHandle = 0x00000005)  returns 0x00 (0000ms, 1893ms total)
T6608 004:397 JLINK_ClrBPEx(BPHandle = 0x00000006)  returns 0x00 (0000ms, 1893ms total)
T6608 004:397 JLINK_ReadMemU32(0xE000ED30, 0x0001 Items, ...) -- CPU_ReadMem(4 bytes @ 0xE000ED30) -- Data:  03 00 00 00  returns 0x01 (0010ms, 1903ms total)
T6608 004:409 JLINK_ReadMemU32(0xE0001028, 0x0001 Items, ...) -- CPU_ReadMem(4 bytes @ 0xE0001028) -- Data:  00 00 00 00  returns 0x01 (0009ms, 1912ms total)
T6608 004:421 JLINK_ReadMemU32(0xE0001038, 0x0001 Items, ...) -- CPU_ReadMem(4 bytes @ 0xE0001038) -- Data:  00 02 00 00  returns 0x01 (0010ms, 1922ms total)
T6608 004:433 JLINK_ReadMemU32(0xE0001048, 0x0001 Items, ...) -- CPU_ReadMem(4 bytes @ 0xE0001048) -- Data:  00 00 00 00  returns 0x01 (0009ms, 1931ms total)
T6608 004:445 JLINK_ReadMemU32(0xE0001058, 0x0001 Items, ...) -- CPU_ReadMem(4 bytes @ 0xE0001058) -- Data:  00 00 00 00  returns 0x01 (0009ms, 1940ms total)
T6608 004:457 JLINK_ReadReg(R0)  returns 0x080018FD (0000ms, 1940ms total)
T6608 004:457 JLINK_ReadReg(R1)  returns 0x20000C38 (0000ms, 1940ms total)
T6608 004:457 JLINK_ReadReg(R2)  returns 0x00000000 (0000ms, 1940ms total)
T6608 004:457 JLINK_ReadReg(R3)  returns 0x08001759 (0000ms, 1940ms total)
T6608 004:457 JLINK_ReadReg(R4)  returns 0x08001F64 (0000ms, 1940ms total)
T6608 004:457 JLINK_ReadReg(R5)  returns 0x08001F64 (0000ms, 1940ms total)
T6608 004:457 JLINK_ReadReg(R6)  returns 0x00000000 (0000ms, 1940ms total)
T6608 004:457 JLINK_ReadReg(R7)  returns 0x00000000 (0000ms, 1940ms total)
T6608 004:457 JLINK_ReadReg(R8)  returns 0x00000000 (0000ms, 1940ms total)
T6608 004:457 JLINK_ReadReg(R9)  returns 0x00000000 (0000ms, 1940ms total)
T6608 004:457 JLINK_ReadReg(R10)  returns 0x00000000 (0000ms, 1940ms total)
T6608 004:457 JLINK_ReadReg(R11)  returns 0x00000000 (0000ms, 1940ms total)
T6608 004:457 JLINK_ReadReg(R12)  returns 0x00000000 (0000ms, 1940ms total)
T6608 004:457 JLINK_ReadReg(R13 (SP))  returns 0x20000C38 (0000ms, 1940ms total)
T6608 004:457 JLINK_ReadReg(R14)  returns 0x08000311 (0000ms, 1940ms total)
T6608 004:457 JLINK_ReadReg(R15 (PC))  returns 0x080018FC (0000ms, 1940ms total)
T6608 004:457 JLINK_ReadReg(XPSR)  returns 0x61000000 (0000ms, 1940ms total)
T6608 004:457 JLINK_ReadReg(MSP)  returns 0x20000C38 (0000ms, 1940ms total)
T6608 004:457 JLINK_ReadReg(PSP)  returns 0x00000000 (0000ms, 1940ms total)
T6608 004:457 JLINK_ReadReg(CFBP)  returns 0x00000000 (0000ms, 1940ms total)
T6608 004:457 JLINK_ReadReg(FPSCR)  returns 0x00000000 (0119ms, 2059ms total)
T6608 004:579 JLINK_ReadReg(FPS0)  returns 0x00000000 (0000ms, 2059ms total)
T6608 004:579 JLINK_ReadReg(FPS1)  returns 0x00000000 (0000ms, 2059ms total)
T6608 004:579 JLINK_ReadReg(FPS2)  returns 0x00000000 (0000ms, 2059ms total)
T6608 004:579 JLINK_ReadReg(FPS3)  returns 0x00000000 (0000ms, 2059ms total)
T6608 004:579 JLINK_ReadReg(FPS4)  returns 0x00000000 (0000ms, 2059ms total)
T6608 004:579 JLINK_ReadReg(FPS5)  returns 0x00000000 (0000ms, 2059ms total)
T6608 004:579 JLINK_ReadReg(FPS6)  returns 0x00000000 (0000ms, 2059ms total)
T6608 004:579 JLINK_ReadReg(FPS7)  returns 0x00000000 (0000ms, 2059ms total)
T6608 004:579 JLINK_ReadReg(FPS8)  returns 0x00000000 (0000ms, 2059ms total)
T6608 004:579 JLINK_ReadReg(FPS9)  returns 0x00000000 (0000ms, 2059ms total)
T6608 004:579 JLINK_ReadReg(FPS10)  returns 0x00000000 (0000ms, 2059ms total)
T6608 004:579 JLINK_ReadReg(FPS11)  returns 0x00000000 (0000ms, 2059ms total)
T6608 004:579 JLINK_ReadReg(FPS12)  returns 0x00000000 (0000ms, 2059ms total)
T6608 004:579 JLINK_ReadReg(FPS13)  returns 0x00000000 (0000ms, 2059ms total)
T6608 004:579 JLINK_ReadReg(FPS14)  returns 0x00000000 (0000ms, 2059ms total)
T6608 004:579 JLINK_ReadReg(FPS15)  returns 0x00000000 (0000ms, 2059ms total)
T6608 004:579 JLINK_ReadReg(FPS16)  returns 0x00000000 (0000ms, 2059ms total)
T6608 004:579 JLINK_ReadReg(FPS17)  returns 0x00000000 (0000ms, 2059ms total)
T6608 004:579 JLINK_ReadReg(FPS18)  returns 0x00000000 (0000ms, 2059ms total)
T6608 004:579 JLINK_ReadReg(FPS19)  returns 0x00000000 (0000ms, 2059ms total)
T6608 004:579 JLINK_ReadReg(FPS20)  returns 0x00000000 (0000ms, 2059ms total)
T6608 004:579 JLINK_ReadReg(FPS31)  returns 0x00000000 (0000ms, 2059ms total)
T6608 004:579 JLINK_ReadReg(FPS7)  returns 0x00000000 (0000ms, 2059ms total)
T6608 004:579 JLINK_ReadReg(FPS8)  returns 0x00000000 (0000ms, 2059ms total)
T6608 004:579 JLINK_ReadReg(FPS9)  returns 0x00000000 (0000ms, 2059ms total)
T6608 004:579 JLINK_ReadReg(FPS10)  returns 0x00000000 (0000ms, 2059ms total)
T6608 004:579 JLINK_ReadReg(FPS11)  returns 0x00000000 (0000ms, 2059ms total)
T6608 004:579 JLINK_ReadReg(FPS12)  returns 0x00000000 (0001ms, 2060ms total)
T6608 004:580 JLINK_ReadReg(FPS13)  returns 0x00000000 (0000ms, 2060ms total)
T6608 004:580 JLINK_ReadReg(FPS14)  returns 0x00000000 (0000ms, 2060ms total)
T6608 004:580 JLINK_ReadReg(FPS15)  returns 0x00000000 (0000ms, 2060ms total)
T6608 004:580 JLINK_ReadReg(FPS16)  returns 0x00000000 (0000ms, 2060ms total)
T6608 004:580 JLINK_ReadMem (0x20000044, 0x0004 Bytes, ...) -- CPU_ReadMem(4 bytes @ 0x20000044) -- Data:  00 00 00 00  returns 0x00 (0009ms, 2069ms total)
T3960 004:591 JLINK_ReadMem (0x200007B8, 0x0020 Bytes, ...) -- CPU_ReadMem(32 bytes @ 0x200007B8) -- Data:  00 00 00 00 00 00 00 00 00 00 00 00 00 00 00 00 ...  returns 0x00 (0016ms, 2085ms total)
T3960 004:610 JLINK_ReadMem (0x2000007C, 0x0004 Bytes, ...) -- CPU_ReadMem(4 bytes @ 0x2000007C) -- Data:  00 00 00 00  returns 0x00 (0010ms, 2095ms total)
T3960 004:622 JLINK_ReadMem (0x200000E0, 0x0020 Bytes, ...) -- CPU_ReadMem(32 bytes @ 0x200000E0) -- Data:  00 00 00 00 00 00 00 00 00 00 00 00 00 00 00 00 ...  returns 0x00 (0016ms, 2111ms total)
T3960 004:649 JLINK_ReadMem (0x080017FC, 0x0004 Bytes, ...) -- CPU_ReadMem(4 bytes @ 0x080017FC) -- Data:  90 47 6D 1C  returns 0x00 (0010ms, 2121ms total)
T3960 004:661 JLINK_ReadMem (0x08001800, 0x0038 Bytes, ...) -- CPU_ReadMem(56 bytes @ 0x08001800) -- Data:  58 E0 0A 99 4F F0 0A 09 01 C9 0A 91 00 28 02 DA ...  returns 0x00 (0022ms, 2143ms total)
T3960 004:685 JLINK_ReadMem (0x08001838, 0x003C Bytes, ...) -- CPU_ReadMem(60 bytes @ 0x08001838) -- Data:  4F F0 0A 09 01 C9 0A 91 F7 E7 49 46 FE F7 40 FD ...  returns 0x00 (0024ms, 2167ms total)
T3960 004:712 JLINK_ReadMem (0x08001874, 0x003C Bytes, ...) -- CPU_ReadMem(60 bytes @ 0x08001874) -- Data:  08 A8 5A 46 C0 5D 0B 99 90 47 6D 1C 7F 1C 57 45 ...  returns 0x00 (0023ms, 2190ms total)
T3960 004:738 JLINK_ReadMem (0x080018B0, 0x003C Bytes, ...) -- CPU_ReadMem(60 bytes @ 0x080018B0) -- Data:  01 09 F4 DC 64 1C 65 E7 09 28 01 00 00 28 01 DC ...  returns 0x00 (0023ms, 2213ms total)
T3960 004:764 JLINK_ReadMem (0x080018EC, 0x003C Bytes, ...) -- CPU_ReadMem(60 bytes @ 0x080018EC) -- Data:  F9 D0 C2 B2 01 4B 1B 1D 1A 80 70 47 00 44 00 40 ...  returns 0x00 (0023ms, 2236ms total)
T6608 009:486 JLINK_SetBPEx(Addr = 0x080019A0, Type = 0xFFFFFFF2)  returns 0x00000007 (0004ms, 2240ms total)
T6608 009:493 JLINK_SetBPEx(Addr = 0x08001990, Type = 0xFFFFFFF2)  returns 0x00000008 (0000ms, 2240ms total)
T6608 009:493 JLINK_SetBPEx(Addr = 0x08001970, Type = 0xFFFFFFF2)  returns 0x00000009 (0000ms, 2240ms total)
T6608 009:493 JLINK_SetBPEx(Addr = 0x0800196A, Type = 0xFFFFFFF2)  returns 0x0000000A (0000ms, 2240ms total)
T6608 009:493 JLINK_SetBPEx(Addr = 0x08000972, Type = 0xFFFFFFF2)  returns 0x0000000B (0000ms, 2240ms total)
T6608 009:493 JLINK_ReadMemU32(0xE0001004, 0x0001 Items, ...) -- CPU_ReadMem(4 bytes @ 0xE0001004) -- Data:  2A 23 00 00  returns 0x01 (0009ms, 2249ms total)
T6608 009:505 JLINK_WriteU32(0xE0001004, 0x000003FF) -- CPU_WriteMem(4 bytes @ 0xE0001004)  returns 0x00 (0010ms, 2259ms total)
T6608 009:517 JLINK_WriteU32(0xE0001000, 0x00410A1F)  returns 0x00 (0000ms, 2259ms total)
T6608 009:517 JLINK_WriteU32(0xE0000E80, 0x0001000F)  returns 0x00 (0000ms, 2259ms total)
T6608 009:517 JLINK_SWO_Control(JLINKARM_SWO_CMD_GET_NUM_BYTES, ...)  returns 0x00 (0000ms, 2259ms total)
T6608 009:517 JLINK_Go() -- CPU_WriteMem(4 bytes @ 0xE0002000) -- CPU_WriteMem(4 bytes @ 0xE0002000) -- CPU_WriteMem(4 bytes @ 0xE0002000) -- CPU_WriteMem(4 bytes @ 0xE0002000) -- CPU_WriteMem(4 bytes @ 0xE0002000) -- CPU_WriteMem(4 bytes @ 0xE0000E80) -- CPU_WriteMem(4 bytes @ 0xE0001000) -- CPU_WriteMem(4 bytes @ 0xE0002008) -- CPU_WriteMem(4 bytes @ 0xE000200C) -- CPU_WriteMem(4 bytes @ 0xE0002010) -- CPU_WriteMem(4 bytes @ 0xE0002014) -- CPU_WriteMem(4 bytes @ 0xE0002018)
 -- CPU_WriteMem(4 bytes @ 0xE000201C) (0124ms, 2383ms total)
T6608 009:644 JLINK_WriteU32(0xE0001000, 0x00010A1F) -- CPU is running -- CPU_WriteMem(4 bytes @ 0xE0001000)  returns 0x00 (0009ms, 2392ms total)
T6608 009:754 JLINK_SWO_Read(..., Offset = 0x00, NumBytes = 0x400000) -- Data:   NumBytesRead = 0x00 (0000ms, 2392ms total)
T6608 009:759 JLINK_SWO_Control(JLINKARM_SWO_CMD_FLUSH, ...)  returns 0x00 (0000ms, 2392ms total)
T6608 009:759 JLINK_IsHalted()  returns FALSE (0009ms, 2401ms total)
T6608 009:870 JLINK_SWO_Read(..., Offset = 0x00, NumBytes = 0x400000) -- Data:   NumBytesRead = 0x00 (0000ms, 2392ms total)
T6608 009:876 JLINK_SWO_Control(JLINKARM_SWO_CMD_FLUSH, ...)  returns 0x00 (0000ms, 2392ms total)
T6608 009:876 JLINK_IsHalted()  returns FALSE (0009ms, 2401ms total)
T6608 009:987 JLINK_SWO_Read(..., Offset = 0x00, NumBytes = 0x400000) -- Data:   NumBytesRead = 0x00 (0000ms, 2392ms total)
T6608 009:994 JLINK_SWO_Control(JLINKARM_SWO_CMD_FLUSH, ...)  returns 0x00 (0000ms, 2392ms total)
T6608 009:994 JLINK_IsHalted()  returns FALSE (0009ms, 2401ms total)
T6608 010:103 JLINK_SWO_Read(..., Offset = 0x00, NumBytes = 0x400000) -- Data:   NumBytesRead = 0x00 (0000ms, 2392ms total)
T6608 010:110 JLINK_SWO_Control(JLINKARM_SWO_CMD_FLUSH, ...)  returns 0x00 (0000ms, 2392ms total)
T6608 010:110 JLINK_IsHalted()  returns FALSE (0009ms, 2401ms total)
T6608 010:221 JLINK_SWO_Read(..., Offset = 0x00, NumBytes = 0x400000) -- Data:   NumBytesRead = 0x00 (0000ms, 2392ms total)
T6608 010:225 JLINK_SWO_Control(JLINKARM_SWO_CMD_FLUSH, ...)  returns 0x00 (0000ms, 2392ms total)
T6608 010:228 JLINK_ReadMemU32(0xE0001004, 0x0001 Items, ...) -- CPU is running -- CPU_ReadMem(4 bytes @ 0xE0001004) -- Data:  FB EA F9 05  returns 0x01 (0009ms, 2401ms total)
T3960 010:240 JLINK_ReadMem (0x200007B8, 0x0020 Bytes, ...) -- CPU is running -- CPU_ReadMem(32 bytes @ 0x200007B8) -- Data:  00 00 00 00 00 00 00 00 00 00 00 00 00 00 00 00 ...  returns 0x00 (0016ms, 2417ms total)
T3960 010:259 JLINK_ReadMem (0x2000007C, 0x0004 Bytes, ...) -- CPU is running -- CPU_ReadMem(4 bytes @ 0x2000007C) -- Data:  00 00 00 00  returns 0x00 (0009ms, 2426ms total)
T3960 010:271 JLINK_ReadMem (0x200000E0, 0x0020 Bytes, ...) -- CPU is running -- CPU_ReadMem(32 bytes @ 0x200000E0) -- Data:  00 00 00 00 00 00 00 00 00 00 00 00 00 00 00 00 ...  returns 0x00 (0016ms, 2442ms total)
T6608 010:293 JLINK_IsHalted()  returns FALSE (0009ms, 2451ms total)
T6608 010:405 JLINK_SWO_Read(..., Offset = 0x00, NumBytes = 0x400000) -- Data:   NumBytesRead = 0x00 (0000ms, 2451ms total)
T6608 010:409 JLINK_SWO_Control(JLINKARM_SWO_CMD_FLUSH, ...)  returns 0x00 (0000ms, 2451ms total)
T6608 010:409 JLINK_IsHalted()  returns FALSE (0009ms, 2460ms total)
T6608 010:520 JLINK_SWO_Read(..., Offset = 0x00, NumBytes = 0x400000) -- Data:   NumBytesRead = 0x00 (0000ms, 2451ms total)
T6608 010:526 JLINK_SWO_Control(JLINKARM_SWO_CMD_FLUSH, ...)  returns 0x00 (0000ms, 2451ms total)
T6608 010:526 JLINK_IsHalted()  returns FALSE (0012ms, 2463ms total)
T6608 010:641 JLINK_SWO_Read(..., Offset = 0x00, NumBytes = 0x400000) -- Data:   NumBytesRead = 0x00 (0000ms, 2451ms total)
T6608 010:648 JLINK_SWO_Control(JLINKARM_SWO_CMD_FLUSH, ...)  returns 0x00 (0000ms, 2451ms total)
T6608 010:648 JLINK_IsHalted()  returns FALSE (0009ms, 2460ms total)
T6608 010:758 JLINK_SWO_Read(..., Offset = 0x00, NumBytes = 0x400000) -- Data:   NumBytesRead = 0x00 (0000ms, 2451ms total)
T6608 010:764 JLINK_SWO_Control(JLINKARM_SWO_CMD_FLUSH, ...)  returns 0x00 (0000ms, 2451ms total)
T6608 010:764 JLINK_ReadMemU32(0xE0001004, 0x0001 Items, ...) -- CPU is running -- CPU_ReadMem(4 bytes @ 0xE0001004) -- Data:  A0 51 5A 0B  returns 0x01 (0009ms, 2460ms total)
T3960 010:776 JLINK_ReadMem (0x200007B8, 0x0020 Bytes, ...) -- CPU is running -- CPU_ReadMem(32 bytes @ 0x200007B8) -- Data:  00 00 00 00 00 00 00 00 00 00 00 00 00 00 00 00 ...  returns 0x00 (0016ms, 2476ms total)
T3960 010:795 JLINK_ReadMem (0x2000007C, 0x0004 Bytes, ...) -- CPU is running -- CPU_ReadMem(4 bytes @ 0x2000007C) -- Data:  00 00 00 00  returns 0x00 (0009ms, 2485ms total)
T3960 010:807 JLINK_ReadMem (0x200000E0, 0x0020 Bytes, ...) -- CPU is running -- CPU_ReadMem(32 bytes @ 0x200000E0) -- Data:  00 00 00 00 00 00 00 00 00 00 00 00 00 00 00 00 ...  returns 0x00 (0016ms, 2501ms total)
T6608 010:827 JLINK_IsHalted()  returns FALSE (0009ms, 2510ms total)
T6608 010:937 JLINK_SWO_Read(..., Offset = 0x00, NumBytes = 0x400000) -- Data:   NumBytesRead = 0x00 (0000ms, 2501ms total)
T6608 010:944 JLINK_SWO_Control(JLINKARM_SWO_CMD_FLUSH, ...)  returns 0x00 (0000ms, 2501ms total)
T6608 010:944 JLINK_IsHalted()  returns FALSE (0009ms, 2510ms total)
T6608 011:056 JLINK_SWO_Read(..., Offset = 0x00, NumBytes = 0x400000) -- Data:   NumBytesRead = 0x00 (0000ms, 2501ms total)
T6608 011:063 JLINK_SWO_Control(JLINKARM_SWO_CMD_FLUSH, ...)  returns 0x00 (0000ms, 2501ms total)
T6608 011:063 JLINK_IsHalted()  returns FALSE (0009ms, 2510ms total)
T6608 011:174 JLINK_SWO_Read(..., Offset = 0x00, NumBytes = 0x400000) -- Data:   NumBytesRead = 0x00 (0000ms, 2501ms total)
T6608 011:178 JLINK_SWO_Control(JLINKARM_SWO_CMD_FLUSH, ...)  returns 0x00 (0000ms, 2501ms total)
T6608 011:178 JLINK_IsHalted()  returns FALSE (0009ms, 2510ms total)
T6608 011:288 JLINK_SWO_Read(..., Offset = 0x00, NumBytes = 0x400000) -- Data:   NumBytesRead = 0x00 (0000ms, 2501ms total)
T6608 011:295 JLINK_SWO_Control(JLINKARM_SWO_CMD_FLUSH, ...)  returns 0x00 (0000ms, 2501ms total)
T6608 011:295 JLINK_ReadMemU32(0xE0001004, 0x0001 Items, ...) -- CPU is running -- CPU_ReadMem(4 bytes @ 0xE0001004) -- Data:  3A D8 AD 10  returns 0x01 (0009ms, 2510ms total)
T3960 011:307 JLINK_ReadMem (0x200007B8, 0x0020 Bytes, ...) -- CPU is running -- CPU_ReadMem(32 bytes @ 0x200007B8) -- Data:  00 00 00 00 00 00 00 00 00 00 00 00 00 00 00 00 ...  returns 0x00 (0016ms, 2526ms total)
T3960 011:326 JLINK_ReadMem (0x2000007C, 0x0004 Bytes, ...) -- CPU is running -- CPU_ReadMem(4 bytes @ 0x2000007C) -- Data:  00 00 00 00  returns 0x00 (0009ms, 2535ms total)
T3960 011:338 JLINK_ReadMem (0x200000E0, 0x0020 Bytes, ...) -- CPU is running -- CPU_ReadMem(32 bytes @ 0x200000E0) -- Data:  00 00 00 00 00 00 00 00 00 00 00 00 00 00 00 00 ...  returns 0x00 (0016ms, 2551ms total)
T6608 011:362 JLINK_IsHalted()  returns FALSE (0009ms, 2560ms total)
T6608 011:472 JLINK_SWO_Read(..., Offset = 0x00, NumBytes = 0x400000) -- Data:   NumBytesRead = 0x00 (0000ms, 2560ms total)
T6608 011:476 JLINK_SWO_Control(JLINKARM_SWO_CMD_FLUSH, ...)  returns 0x00 (0000ms, 2560ms total)
T6608 011:479 JLINK_IsHalted()  returns FALSE (0009ms, 2569ms total)
T6608 011:590 JLINK_SWO_Read(..., Offset = 0x00, NumBytes = 0x400000) -- Data:   NumBytesRead = 0x00 (0000ms, 2560ms total)
T6608 011:594 JLINK_SWO_Control(JLINKARM_SWO_CMD_FLUSH, ...)  returns 0x00 (0000ms, 2560ms total)
T6608 011:594 JLINK_IsHalted()  returns FALSE (0012ms, 2572ms total)
T6608 011:707 JLINK_SWO_Read(..., Offset = 0x00, NumBytes = 0x400000) -- Data:   NumBytesRead = 0x00 (0000ms, 2560ms total)
T6608 011:711 JLINK_SWO_Control(JLINKARM_SWO_CMD_FLUSH, ...)  returns 0x00 (0000ms, 2560ms total)
T6608 011:711 JLINK_IsHalted()  returns FALSE (0008ms, 2568ms total)
T6608 011:822 JLINK_SWO_Read(..., Offset = 0x00, NumBytes = 0x400000) -- Data:   NumBytesRead = 0x00 (0000ms, 2560ms total)
T6608 011:829 JLINK_SWO_Control(JLINKARM_SWO_CMD_FLUSH, ...)  returns 0x00 (0000ms, 2560ms total)
T6608 011:829 JLINK_ReadMemU32(0xE0001004, 0x0001 Items, ...) -- CPU is running -- CPU_ReadMem(4 bytes @ 0xE0001004) -- Data:  23 07 09 16  returns 0x01 (0009ms, 2569ms total)
T3960 011:841 JLINK_ReadMem (0x200007B8, 0x0020 Bytes, ...) -- CPU is running -- CPU_ReadMem(32 bytes @ 0x200007B8) -- Data:  00 00 00 00 00 00 00 00 00 00 00 00 00 00 00 00 ...  returns 0x00 (0016ms, 2585ms total)
T3960 011:860 JLINK_ReadMem (0x2000007C, 0x0004 Bytes, ...) -- CPU is running -- CPU_ReadMem(4 bytes @ 0x2000007C) -- Data:  00 00 00 00  returns 0x00 (0009ms, 2594ms total)
T3960 011:872 JLINK_ReadMem (0x200000E0, 0x0020 Bytes, ...) -- CPU is running -- CPU_ReadMem(32 bytes @ 0x200000E0) -- Data:  00 00 00 00 00 00 00 00 00 00 00 00 00 00 00 00 ...  returns 0x00 (0016ms, 2610ms total)
T6608 011:894 JLINK_IsHalted()  returns FALSE (0010ms, 2620ms total)
T6608 012:005 JLINK_SWO_Read(..., Offset = 0x00, NumBytes = 0x400000) -- Data:   NumBytesRead = 0x00 (0000ms, 2620ms total)
T6608 012:012 JLINK_SWO_Control(JLINKARM_SWO_CMD_FLUSH, ...)  returns 0x00 (0000ms, 2620ms total)
T6608 012:012 JLINK_IsHalted()  returns FALSE (0010ms, 2630ms total)
T6608 012:122 JLINK_SWO_Read(..., Offset = 0x00, NumBytes = 0x400000) -- Data:   NumBytesRead = 0x00 (0000ms, 2620ms total)
T6608 012:129 JLINK_SWO_Control(JLINKARM_SWO_CMD_FLUSH, ...)  returns 0x00 (0000ms, 2620ms total)
T6608 012:129 JLINK_IsHalted()  returns FALSE (0010ms, 2630ms total)
T6608 012:239 JLINK_SWO_Read(..., Offset = 0x00, NumBytes = 0x400000) -- Data:   NumBytesRead = 0x00 (0000ms, 2620ms total)
T6608 012:246 JLINK_SWO_Control(JLINKARM_SWO_CMD_FLUSH, ...)  returns 0x00 (0000ms, 2620ms total)
T6608 012:246 JLINK_IsHalted()  returns FALSE (0010ms, 2630ms total)
T6608 012:357 JLINK_SWO_Read(..., Offset = 0x00, NumBytes = 0x400000) -- Data:   NumBytesRead = 0x00 (0000ms, 2620ms total)
T6608 012:364 JLINK_SWO_Control(JLINKARM_SWO_CMD_FLUSH, ...)  returns 0x00 (0000ms, 2620ms total)
T6608 012:364 JLINK_ReadMemU32(0xE0001004, 0x0001 Items, ...) -- CPU is running -- CPU_ReadMem(4 bytes @ 0xE0001004) -- Data:  5C 50 F0 1A  returns 0x01 (0010ms, 2630ms total)
T3960 012:376 JLINK_ReadMem (0x200007B8, 0x0020 Bytes, ...) -- CPU is running -- CPU_ReadMem(32 bytes @ 0x200007B8) -- Data:  00 00 00 00 00 00 00 00 00 00 00 00 00 00 00 00 ...  returns 0x00 (0016ms, 2646ms total)
T3960 012:395 JLINK_ReadMem (0x2000007C, 0x0004 Bytes, ...) -- CPU is running -- CPU_ReadMem(4 bytes @ 0x2000007C) -- Data:  00 00 00 00  returns 0x00 (0010ms, 2656ms total)
T3960 012:407 JLINK_ReadMem (0x200000E0, 0x0020 Bytes, ...) -- CPU is running -- CPU_ReadMem(32 bytes @ 0x200000E0) -- Data:  00 00 00 00 00 00 00 00 00 00 00 00 00 00 00 00 ...  returns 0x00 (0016ms, 2672ms total)
T6608 012:430 JLINK_IsHalted()  returns TRUE (0076ms, 2748ms total)
T6608 012:509 JLINK_Halt()  returns 0x00 (0000ms, 2748ms total)
T6608 012:509 JLINK_IsHalted()  returns TRUE (0000ms, 2748ms total)
T6608 012:509 JLINK_IsHalted()  returns TRUE (0000ms, 2748ms total)
T6608 012:509 JLINK_IsHalted()  returns TRUE (0000ms, 2748ms total)
T6608 012:509 JLINK_ReadReg(R15 (PC))  returns 0x0800196A (0000ms, 2748ms total)
T6608 012:509 JLINK_ReadReg(XPSR)  returns 0x21000000 (0000ms, 2748ms total)
T6608 012:509 JLINK_SWO_Read(..., Offset = 0x00, NumBytes = 0x400000) -- Data:   NumBytesRead = 0x00 (0000ms, 2748ms total)
T6608 012:513 JLINK_SWO_Control(JLINKARM_SWO_CMD_FLUSH, ...)  returns 0x00 (0000ms, 2748ms total)
T6608 012:513 JLINK_ClrBPEx(BPHandle = 0x00000007)  returns 0x00 (0000ms, 2748ms total)
T6608 012:513 JLINK_ClrBPEx(BPHandle = 0x00000008)  returns 0x00 (0000ms, 2748ms total)
T6608 012:513 JLINK_ClrBPEx(BPHandle = 0x00000009)  returns 0x00 (0000ms, 2748ms total)
T6608 012:513 JLINK_ClrBPEx(BPHandle = 0x0000000A)  returns 0x00 (0000ms, 2748ms total)
T6608 012:513 JLINK_ClrBPEx(BPHandle = 0x0000000B)  returns 0x00 (0000ms, 2748ms total)
T6608 012:513 JLINK_ReadMemU32(0xE000ED30, 0x0001 Items, ...) -- CPU_ReadMem(4 bytes @ 0xE000ED30) -- Data:  03 00 00 00  returns 0x01 (0010ms, 2758ms total)
T6608 012:525 JLINK_ReadMemU32(0xE0001028, 0x0001 Items, ...) -- CPU_ReadMem(4 bytes @ 0xE0001028) -- Data:  00 00 00 00  returns 0x01 (0010ms, 2768ms total)
T6608 012:537 JLINK_ReadMemU32(0xE0001038, 0x0001 Items, ...) -- CPU_ReadMem(4 bytes @ 0xE0001038) -- Data:  00 02 00 00  returns 0x01 (0010ms, 2778ms total)
T6608 012:549 JLINK_ReadMemU32(0xE0001048, 0x0001 Items, ...) -- CPU_ReadMem(4 bytes @ 0xE0001048) -- Data:  00 00 00 00  returns 0x01 (0009ms, 2787ms total)
T6608 012:561 JLINK_ReadMemU32(0xE0001058, 0x0001 Items, ...) -- CPU_ReadMem(4 bytes @ 0xE0001058) -- Data:  00 00 00 00  returns 0x01 (0010ms, 2797ms total)
T6608 012:573 JLINK_ReadReg(R0)  returns 0x00000001 (0000ms, 2797ms total)
T6608 012:573 JLINK_ReadReg(R1)  returns 0x00000001 (0000ms, 2797ms total)
T6608 012:573 JLINK_ReadReg(R2)  returns 0x20000000 (0000ms, 2797ms total)
T6608 012:573 JLINK_ReadReg(R3)  returns 0x00002710 (0000ms, 2797ms total)
T6608 012:573 JLINK_ReadReg(R4)  returns 0x00000001 (0000ms, 2797ms total)
T6608 012:573 JLINK_ReadReg(R5)  returns 0x0000EF15 (0000ms, 2797ms total)
T6608 012:573 JLINK_ReadReg(R6)  returns 0x00000000 (0000ms, 2797ms total)
T6608 012:573 JLINK_ReadReg(R7)  returns 0x00000000 (0000ms, 2797ms total)
T6608 012:573 JLINK_ReadReg(R8)  returns 0x00000000 (0000ms, 2797ms total)
T6608 012:573 JLINK_ReadReg(R9)  returns 0x00000000 (0000ms, 2797ms total)
T6608 012:573 JLINK_ReadReg(R10)  returns 0x00000000 (0000ms, 2797ms total)
T6608 012:573 JLINK_ReadReg(R11)  returns 0x00000000 (0000ms, 2797ms total)
T6608 012:573 JLINK_ReadReg(R12)  returns 0x00000150 (0000ms, 2797ms total)
T6608 012:573 JLINK_ReadReg(R13 (SP))  returns 0x20000C30 (0000ms, 2797ms total)
T6608 012:573 JLINK_ReadReg(R14)  returns 0x0800196B (0000ms, 2797ms total)
T6608 012:573 JLINK_ReadReg(R15 (PC))  returns 0x0800196A (0000ms, 2797ms total)
T6608 012:573 JLINK_ReadReg(XPSR)  returns 0x21000000 (0000ms, 2797ms total)
T6608 012:573 JLINK_ReadReg(MSP)  returns 0x20000C30 (0000ms, 2797ms total)
T6608 012:573 JLINK_ReadReg(PSP)  returns 0x00000000 (0000ms, 2797ms total)
T6608 012:573 JLINK_ReadReg(CFBP)  returns 0x04000000 (0000ms, 2797ms total)
T6608 012:573 JLINK_ReadReg(FPSCR)  returns 0x00000000 (0119ms, 2916ms total)
T6608 012:694 JLINK_ReadReg(FPS0)  returns 0x404CCCCD (0003ms, 2919ms total)
T6608 012:700 JLINK_ReadReg(FPS1)  returns 0x00000000 (0000ms, 2919ms total)
T6608 012:700 JLINK_ReadReg(FPS2)  returns 0x00000000 (0000ms, 2919ms total)
T6608 012:700 JLINK_ReadReg(FPS3)  returns 0x00000000 (0000ms, 2919ms total)
T6608 012:700 JLINK_ReadReg(FPS4)  returns 0x00000000 (0000ms, 2919ms total)
T6608 012:700 JLINK_ReadReg(FPS5)  returns 0x00000000 (0000ms, 2919ms total)
T6608 012:700 JLINK_ReadReg(FPS6)  returns 0x00000000 (0000ms, 2919ms total)
T6608 012:700 JLINK_ReadReg(FPS7)  returns 0x00000000 (0000ms, 2919ms total)
T6608 012:701 JLINK_ReadReg(FPS8)  returns 0x00000000 (0000ms, 2919ms total)
T6608 012:701 JLINK_ReadReg(FPS9)  returns 0x00000000 (0000ms, 2919ms total)
T6608 012:701 JLINK_ReadReg(FPS10)  returns 0x00000000 (0000ms, 2919ms total)
T6608 012:701 JLINK_ReadReg(FPS11)  returns 0x00000000 (0000ms, 2919ms total)
T6608 012:701 JLINK_ReadReg(FPS12)  returns 0x00000000 (0000ms, 2919ms total)
T6608 012:701 JLINK_ReadReg(FPS13)  returns 0x00000000 (0000ms, 2919ms total)
T6608 012:701 JLINK_ReadReg(FPS14)  returns 0x00000000 (0000ms, 2919ms total)
T6608 012:701 JLINK_ReadReg(FPS15)  returns 0x00000000 (0000ms, 2919ms total)
T6608 012:701 JLINK_ReadReg(FPS16)  returns 0x00000000 (0000ms, 2919ms total)
T6608 012:701 JLINK_ReadReg(FPS17)  returns 0x00000000 (0000ms, 2919ms total)
T6608 012:701 JLINK_ReadReg(FPS18)  returns 0x00000000 (0000ms, 2919ms total)
T6608 012:701 JLINK_ReadReg(FPS19)  returns 0x00000000 (0000ms, 2919ms total)
T6608 012:701 JLINK_ReadReg(FPS20)  returns 0x00000000 (0000ms, 2919ms total)
T6608 012:701 JLINK_ReadReg(FPS31)  returns 0x00000000 (0000ms, 2919ms total)
T6608 012:701 JLINK_ReadReg(FPS7)  returns 0x00000000 (0000ms, 2919ms total)
T6608 012:701 JLINK_ReadReg(FPS8)  returns 0x00000000 (0000ms, 2919ms total)
T6608 012:701 JLINK_ReadReg(FPS9)  returns 0x00000000 (0000ms, 2919ms total)
T6608 012:701 JLINK_ReadReg(FPS10)  returns 0x00000000 (0000ms, 2919ms total)
T6608 012:701 JLINK_ReadReg(FPS11)  returns 0x00000000 (0000ms, 2919ms total)
T6608 012:701 JLINK_ReadReg(FPS12)  returns 0x00000000 (0000ms, 2919ms total)
T6608 012:701 JLINK_ReadReg(FPS13)  returns 0x00000000 (0000ms, 2919ms total)
T6608 012:701 JLINK_ReadReg(FPS14)  returns 0x00000000 (0001ms, 2920ms total)
T6608 012:704 JLINK_ReadReg(FPS15)  returns 0x00000000 (0000ms, 2920ms total)
T6608 012:704 JLINK_ReadReg(FPS16)  returns 0x00000000 (0000ms, 2920ms total)
T6608 012:704 JLINK_ReadMem (0x20000044, 0x0004 Bytes, ...) -- CPU_ReadMem(4 bytes @ 0x20000044) -- Data:  00 00 00 00  returns 0x00 (0009ms, 2929ms total)
T3960 012:716 JLINK_ReadMem (0x200007B8, 0x0020 Bytes, ...) -- CPU_ReadMem(32 bytes @ 0x200007B8) -- Data:  00 00 00 00 00 00 00 00 00 00 00 00 00 00 00 00 ...  returns 0x00 (0016ms, 2945ms total)
T3960 012:735 JLINK_ReadMem (0x2000007C, 0x0004 Bytes, ...) -- CPU_ReadMem(4 bytes @ 0x2000007C) -- Data:  00 00 00 00  returns 0x00 (0009ms, 2954ms total)
T3960 012:747 JLINK_ReadMem (0x200000E0, 0x0020 Bytes, ...) -- CPU_ReadMem(32 bytes @ 0x200000E0) -- Data:  00 00 00 00 00 00 00 00 00 00 00 00 00 00 00 00 ...  returns 0x00 (0016ms, 2970ms total)
T3960 012:773 JLINK_ReadMem (0x08001964, 0x003C Bytes, ...) -- CPU_ReadMem(60 bytes @ 0x08001964) -- Data:  01 20 FF F7 53 F8 FE F7 D9 FF 24 E0 60 21 18 48 ...  returns 0x00 (0023ms, 2993ms total)
T6608 014:700 JLINK_ReadMemU32(0xE0001004, 0x0001 Items, ...) -- CPU_ReadMem(4 bytes @ 0xE0001004) -- Data:  5C 50 F0 1A  returns 0x01 (0013ms, 3006ms total)
T6608 014:716 JLINK_WriteU32(0xE0001004, 0x1AF053FF) -- CPU_WriteMem(4 bytes @ 0xE0001004)  returns 0x00 (0008ms, 3014ms total)
T6608 014:727 JLINK_WriteU32(0xE0001000, 0x00410A1F)  returns 0x00 (0000ms, 3014ms total)
T6608 014:727 JLINK_WriteU32(0xE0000E80, 0x0001000F)  returns 0x00 (0000ms, 3014ms total)
T6608 014:727 JLINK_SWO_Control(JLINKARM_SWO_CMD_GET_NUM_BYTES, ...)  returns 0x00 (0000ms, 3014ms total)
T6608 014:727 JLINK_Step() -- CPU_ReadMem(2 bytes @ 0x0800196A) -- Not simulated -- CPU_WriteMem(4 bytes @ 0xE0000E80) -- CPU_WriteMem(4 bytes @ 0xE0001000) -- CPU_WriteMem(4 bytes @ 0xE0002008) -- CPU_WriteMem(4 bytes @ 0xE000200C) -- CPU_WriteMem(4 bytes @ 0xE0002010) -- CPU_WriteMem(4 bytes @ 0xE0002014) -- CPU_WriteMem(4 bytes @ 0xE0002018)  returns 0x00 (0158ms, 3172ms total)
T6608 014:888 JLINK_ReadReg(R15 (PC))  returns 0x08000920 (0000ms, 3172ms total)
T6608 014:888 JLINK_ReadReg(XPSR)  returns 0x21000000 (0000ms, 3172ms total)
T6608 014:888 JLINK_SetBPEx(Addr = 0x080019A0, Type = 0xFFFFFFF2)  returns 0x0000000C (0000ms, 3172ms total)
T6608 014:888 JLINK_SetBPEx(Addr = 0x08001990, Type = 0xFFFFFFF2)  returns 0x0000000D (0000ms, 3172ms total)
T6608 014:888 JLINK_SetBPEx(Addr = 0x08001970, Type = 0xFFFFFFF2)  returns 0x0000000E (0000ms, 3172ms total)
T6608 014:888 JLINK_SetBPEx(Addr = 0x0800196A, Type = 0xFFFFFFF2)  returns 0x0000000F (0000ms, 3172ms total)
T6608 014:888 JLINK_SetBPEx(Addr = 0x08000972, Type = 0xFFFFFFF2)  returns 0x00000010 (0000ms, 3172ms total)
T6608 014:888 JLINK_ReadMemU32(0xE0001004, 0x0001 Items, ...) -- CPU_ReadMem(4 bytes @ 0xE0001004) -- Data:  00 54 F0 1A  returns 0x01 (0009ms, 3181ms total)
T6608 014:900 JLINK_WriteU32(0xE0001004, 0x1AF053FF) -- CPU_WriteMem(4 bytes @ 0xE0001004)  returns 0x00 (0009ms, 3190ms total)
T6608 014:912 JLINK_WriteU32(0xE0001000, 0x00410A1F)  returns 0x00 (0000ms, 3190ms total)
T6608 014:912 JLINK_WriteU32(0xE0000E80, 0x0001000F)  returns 0x00 (0000ms, 3190ms total)
T6608 014:912 JLINK_SWO_Control(JLINKARM_SWO_CMD_GET_NUM_BYTES, ...)  returns 0x00 (0000ms, 3190ms total)
T6608 014:912 JLINK_Go() -- CPU_WriteMem(4 bytes @ 0xE0002000) -- CPU_WriteMem(4 bytes @ 0xE0002000) -- CPU_WriteMem(4 bytes @ 0xE0002000) -- CPU_WriteMem(4 bytes @ 0xE0002000) -- CPU_WriteMem(4 bytes @ 0xE0002000) -- CPU_WriteMem(4 bytes @ 0xE0000E80) -- CPU_WriteMem(4 bytes @ 0xE0001000) -- CPU_WriteMem(4 bytes @ 0xE0002008) -- CPU_WriteMem(4 bytes @ 0xE000200C) -- CPU_WriteMem(4 bytes @ 0xE0002010) -- CPU_WriteMem(4 bytes @ 0xE0002014) -- CPU_WriteMem(4 bytes @ 0xE0002018) (0108ms, 3298ms total)
T6608 015:022 JLINK_WriteU32(0xE0001000, 0x00010A1F) -- CPU is running -- CPU_WriteMem(4 bytes @ 0xE0001000)  returns 0x00 (0010ms, 3308ms total)
T6608 015:135 JLINK_SWO_Read(..., Offset = 0x00, NumBytes = 0x400000) -- Data:   NumBytesRead = 0x00 (0000ms, 3308ms total)
T6608 015:142 JLINK_SWO_Control(JLINKARM_SWO_CMD_FLUSH, ...)  returns 0x00 (0000ms, 3308ms total)
T6608 015:142 JLINK_IsHalted()  returns TRUE (0076ms, 3384ms total)
T6608 015:221 JLINK_Halt()  returns 0x00 (0000ms, 3308ms total)
T6608 015:221 JLINK_IsHalted()  returns TRUE (0000ms, 3308ms total)
T6608 015:221 JLINK_IsHalted()  returns TRUE (0000ms, 3308ms total)
T6608 015:221 JLINK_IsHalted()  returns TRUE (0000ms, 3308ms total)
T6608 015:221 JLINK_ReadReg(R15 (PC))  returns 0x08000972 (0000ms, 3308ms total)
T6608 015:221 JLINK_ReadReg(XPSR)  returns 0x61000000 (0000ms, 3308ms total)
T6608 015:221 JLINK_SWO_Read(..., Offset = 0x00, NumBytes = 0x400000) -- Data:   NumBytesRead = 0x00 (0000ms, 3308ms total)
T6608 015:228 JLINK_SWO_Control(JLINKARM_SWO_CMD_FLUSH, ...)  returns 0x00 (0000ms, 3308ms total)
T6608 015:228 JLINK_ClrBPEx(BPHandle = 0x0000000C)  returns 0x00 (0000ms, 3308ms total)
T6608 015:228 JLINK_ClrBPEx(BPHandle = 0x0000000D)  returns 0x00 (0000ms, 3308ms total)
T6608 015:228 JLINK_ClrBPEx(BPHandle = 0x0000000E)  returns 0x00 (0000ms, 3308ms total)
T6608 015:228 JLINK_ClrBPEx(BPHandle = 0x0000000F)  returns 0x00 (0000ms, 3308ms total)
T6608 015:228 JLINK_ClrBPEx(BPHandle = 0x00000010)  returns 0x00 (0000ms, 3308ms total)
T6608 015:228 JLINK_ReadMemU32(0xE000ED30, 0x0001 Items, ...) -- CPU_ReadMem(4 bytes @ 0xE000ED30) -- Data:  03 00 00 00  returns 0x01 (0009ms, 3317ms total)
T6608 015:240 JLINK_ReadMemU32(0xE0001028, 0x0001 Items, ...) -- CPU_ReadMem(4 bytes @ 0xE0001028) -- Data:  00 00 00 00  returns 0x01 (0009ms, 3326ms total)
T6608 015:252 JLINK_ReadMemU32(0xE0001038, 0x0001 Items, ...) -- CPU_ReadMem(4 bytes @ 0xE0001038) -- Data:  00 02 00 00  returns 0x01 (0009ms, 3335ms total)
T6608 015:264 JLINK_ReadMemU32(0xE0001048, 0x0001 Items, ...) -- CPU_ReadMem(4 bytes @ 0xE0001048) -- Data:  00 00 00 00  returns 0x01 (0009ms, 3344ms total)
T6608 015:276 JLINK_ReadMemU32(0xE0001058, 0x0001 Items, ...) -- CPU_ReadMem(4 bytes @ 0xE0001058) -- Data:  00 00 00 00  returns 0x01 (0009ms, 3353ms total)
T6608 015:288 JLINK_ReadReg(R0)  returns 0x20000080 (0000ms, 3353ms total)
T6608 015:288 JLINK_ReadReg(R1)  returns 0x00000000 (0000ms, 3353ms total)
T6608 015:288 JLINK_ReadReg(R2)  returns 0x20000000 (0000ms, 3353ms total)
T6608 015:291 JLINK_ReadReg(R3)  returns 0x00002710 (0000ms, 3353ms total)
T6608 015:293 JLINK_ReadReg(R4)  returns 0x00000060 (0000ms, 3353ms total)
T6608 015:293 JLINK_ReadReg(R5)  returns 0x0000EF15 (0000ms, 3353ms total)
T6608 015:293 JLINK_ReadReg(R6)  returns 0x00000000 (0000ms, 3353ms total)
T6608 015:293 JLINK_ReadReg(R7)  returns 0x00000000 (0000ms, 3353ms total)
T6608 015:293 JLINK_ReadReg(R8)  returns 0x00000000 (0000ms, 3353ms total)
T6608 015:293 JLINK_ReadReg(R9)  returns 0x00000000 (0000ms, 3353ms total)
T6608 015:293 JLINK_ReadReg(R10)  returns 0x00000000 (0000ms, 3353ms total)
T6608 015:293 JLINK_ReadReg(R11)  returns 0x00000000 (0000ms, 3353ms total)
T6608 015:293 JLINK_ReadReg(R12)  returns 0x00000150 (0000ms, 3353ms total)
T6608 015:293 JLINK_ReadReg(R13 (SP))  returns 0x20000C20 (0000ms, 3353ms total)
T6608 015:293 JLINK_ReadReg(R14)  returns 0x0800196F (0000ms, 3353ms total)
T6608 015:293 JLINK_ReadReg(R15 (PC))  returns 0x08000972 (0000ms, 3353ms total)
T6608 015:293 JLINK_ReadReg(XPSR)  returns 0x61000000 (0000ms, 3353ms total)
T6608 015:293 JLINK_ReadReg(MSP)  returns 0x20000C20 (0000ms, 3353ms total)
T6608 015:293 JLINK_ReadReg(PSP)  returns 0x00000000 (0000ms, 3353ms total)
T6608 015:293 JLINK_ReadReg(CFBP)  returns 0x04000000 (0000ms, 3353ms total)
T6608 015:293 JLINK_ReadReg(FPSCR)  returns 0x00000000 (0119ms, 3472ms total)
T6608 015:414 JLINK_ReadReg(FPS0)  returns 0x00000000 (0000ms, 3472ms total)
T6608 015:414 JLINK_ReadReg(FPS1)  returns 0x00000000 (0000ms, 3472ms total)
T6608 015:414 JLINK_ReadReg(FPS2)  returns 0x00000000 (0000ms, 3472ms total)
T6608 015:414 JLINK_ReadReg(FPS3)  returns 0x00000000 (0000ms, 3472ms total)
T6608 015:414 JLINK_ReadReg(FPS4)  returns 0x00000000 (0000ms, 3472ms total)
T6608 015:414 JLINK_ReadReg(FPS5)  returns 0x00000000 (0000ms, 3472ms total)
T6608 015:414 JLINK_ReadReg(FPS6)  returns 0x00000000 (0000ms, 3472ms total)
T6608 015:414 JLINK_ReadReg(FPS7)  returns 0x00000000 (0000ms, 3472ms total)
T6608 015:414 JLINK_ReadReg(FPS8)  returns 0x00000000 (0000ms, 3472ms total)
T6608 015:414 JLINK_ReadReg(FPS9)  returns 0x00000000 (0000ms, 3472ms total)
T6608 015:414 JLINK_ReadReg(FPS10)  returns 0x00000000 (0000ms, 3472ms total)
T6608 015:414 JLINK_ReadReg(FPS11)  returns 0x00000000 (0000ms, 3472ms total)
T6608 015:414 JLINK_ReadReg(FPS12)  returns 0x00000000 (0000ms, 3472ms total)
T6608 015:414 JLINK_ReadReg(FPS13)  returns 0x00000000 (0000ms, 3472ms total)
T6608 015:414 JLINK_ReadReg(FPS14)  returns 0x00000000 (0000ms, 3472ms total)
T6608 015:414 JLINK_ReadReg(FPS15)  returns 0x00000000 (0000ms, 3472ms total)
T6608 015:414 JLINK_ReadReg(FPS16)  returns 0x00000000 (0000ms, 3472ms total)
T6608 015:414 JLINK_ReadReg(FPS17)  returns 0x00000000 (0001ms, 3473ms total)
T6608 015:415 JLINK_ReadReg(FPS18)  returns 0x00000000 (0000ms, 3473ms total)
T6608 015:415 JLINK_ReadReg(FPS19)  returns 0x00000000 (0000ms, 3473ms total)
T6608 015:415 JLINK_ReadReg(FPS20)  returns 0x00000000 (0000ms, 3473ms total)
T6608 015:415 JLINK_ReadReg(FPS31)  returns 0x00000000 (0000ms, 3473ms total)
T6608 015:415 JLINK_ReadReg(FPS7)  returns 0x00000000 (0000ms, 3473ms total)
T6608 015:415 JLINK_ReadReg(FPS8)  returns 0x00000000 (0000ms, 3473ms total)
T6608 015:415 JLINK_ReadReg(FPS9)  returns 0x00000000 (0000ms, 3473ms total)
T6608 015:415 JLINK_ReadReg(FPS10)  returns 0x00000000 (0000ms, 3473ms total)
T6608 015:415 JLINK_ReadReg(FPS11)  returns 0x00000000 (0000ms, 3473ms total)
T6608 015:415 JLINK_ReadReg(FPS12)  returns 0x00000000 (0000ms, 3473ms total)
T6608 015:415 JLINK_ReadReg(FPS13)  returns 0x00000000 (0000ms, 3473ms total)
T6608 015:415 JLINK_ReadReg(FPS14)  returns 0x00000000 (0000ms, 3473ms total)
T6608 015:415 JLINK_ReadReg(FPS15)  returns 0x00000000 (0000ms, 3473ms total)
T6608 015:415 JLINK_ReadReg(FPS16)  returns 0x00000000 (0000ms, 3473ms total)
T6608 015:415 JLINK_ReadMem (0x20000044, 0x0004 Bytes, ...) -- CPU_ReadMem(4 bytes @ 0x20000044) -- Data:  00 00 00 00  returns 0x00 (0010ms, 3483ms total)
T3960 015:428 JLINK_ReadMem (0x200007B8, 0x0020 Bytes, ...) -- CPU_ReadMem(32 bytes @ 0x200007B8) -- Data:  00 00 00 00 00 00 00 00 00 00 00 00 00 00 00 00 ...  returns 0x00 (0016ms, 3499ms total)
